<Qucs Dataset 0.0.18>
<indep time 13>
  +0.00000000000e+000
  +1.50000000000e+000
  +3.00000000000e+000
  +4.50000000000e+000
  +6.00000000000e+000
  +7.50000000000e+000
  +9.00000000000e+000
  +1.05000000000e+001
  +1.20000000000e+001
  +1.35000000000e+001
  +1.50000000000e+001
  +1.65000000000e+001
  +1.80000000000e+001
</indep>
<dep PrC.Vt time>
  +2.49999999988e+000
  +3.23225439196e+000
  +3.71561221651e+000
  +2.62730272581e+000
  +1.89217868747e+000
  +2.80246524440e+000
  +3.41170927729e+000
  +2.41241350324e+000
  +1.74023100169e+000
  +2.69502343708e+000
  +3.33573741708e+000
  +2.35869393731e+000
  +1.70224601749e+000
</dep>
<dep V.It time>
  +1.59999446577e-007
  -1.13135718915e-007
  +2.37799181857e-007
  +1.68147374452e-007
  -1.98900564002e-007
  -1.40642224358e-007
  +2.18349393747e-007
  +1.54394464207e-007
  -2.08625215892e-007
  -1.47518500027e-007
  +2.13487194693e-007
  +1.50956411988e-007
  -2.11056254881e-007
</dep>
<dep _net0.Vt time>
  +0.00000000000e+000
  +5.00000000000e+000
  +0.00000000000e+000
  +0.00000000000e+000
  +5.00000000000e+000
  +5.00000000000e+000
  +0.00000000000e+000
  +0.00000000000e+000
  +5.00000000000e+000
  +5.00000000000e+000
  +0.00000000000e+000
  +0.00000000000e+000
  +5.00000000000e+000
</dep>
<dep _net1.Vt time>
  -2.49999999988e+000
  +1.76774560804e+000
  -3.71561221651e+000
  -2.62730272581e+000
  +3.10782131253e+000
  +2.19753475560e+000
  -3.41170927729e+000
  -2.41241350324e+000
  +3.25976899831e+000
  +2.30497656292e+000
  -3.33573741708e+000
  -2.35869393731e+000
  +3.29775398251e+000
</dep>
