<Qucs Dataset 0.0.18>
<indep time 100>
  +0.00000000000e+000
  +1.01010101010e-005
  +2.02020202020e-005
  +3.03030303030e-005
  +4.04040404040e-005
  +5.05050505051e-005
  +6.06060606061e-005
  +7.07070707071e-005
  +8.08080808081e-005
  +9.09090909091e-005
  +1.01010101010e-004
  +1.11111111111e-004
  +1.21212121212e-004
  +1.31313131313e-004
  +1.41414141414e-004
  +1.51515151515e-004
  +1.61616161616e-004
  +1.71717171717e-004
  +1.81818181818e-004
  +1.91919191919e-004
  +2.02020202020e-004
  +2.12121212121e-004
  +2.22222222222e-004
  +2.32323232323e-004
  +2.42424242424e-004
  +2.52525252525e-004
  +2.62626262626e-004
  +2.72727272727e-004
  +2.82828282828e-004
  +2.92929292929e-004
  +3.03030303030e-004
  +3.13131313131e-004
  +3.23232323232e-004
  +3.33333333333e-004
  +3.43434343434e-004
  +3.53535353535e-004
  +3.63636363636e-004
  +3.73737373737e-004
  +3.83838383838e-004
  +3.93939393939e-004
  +4.04040404040e-004
  +4.14141414141e-004
  +4.24242424242e-004
  +4.34343434343e-004
  +4.44444444444e-004
  +4.54545454545e-004
  +4.64646464646e-004
  +4.74747474747e-004
  +4.84848484848e-004
  +4.94949494949e-004
  +5.05050505051e-004
  +5.15151515152e-004
  +5.25252525253e-004
  +5.35353535354e-004
  +5.45454545455e-004
  +5.55555555556e-004
  +5.65656565657e-004
  +5.75757575758e-004
  +5.85858585859e-004
  +5.95959595960e-004
  +6.06060606061e-004
  +6.16161616162e-004
  +6.26262626263e-004
  +6.36363636364e-004
  +6.46464646465e-004
  +6.56565656566e-004
  +6.66666666667e-004
  +6.76767676768e-004
  +6.86868686869e-004
  +6.96969696970e-004
  +7.07070707071e-004
  +7.17171717172e-004
  +7.27272727273e-004
  +7.37373737374e-004
  +7.47474747475e-004
  +7.57575757576e-004
  +7.67676767677e-004
  +7.77777777778e-004
  +7.87878787879e-004
  +7.97979797980e-004
  +8.08080808081e-004
  +8.18181818182e-004
  +8.28282828283e-004
  +8.38383838384e-004
  +8.48484848485e-004
  +8.58585858586e-004
  +8.68686868687e-004
  +8.78787878788e-004
  +8.88888888889e-004
  +8.98989898990e-004
  +9.09090909091e-004
  +9.19191919192e-004
  +9.29292929293e-004
  +9.39393939394e-004
  +9.49494949495e-004
  +9.59595959596e-004
  +9.69696969697e-004
  +9.79797979798e-004
  +9.89898989899e-004
  +1.00000000000e-003
</indep>
<dep PrV.Vt time>
  +0.00000000000e+000
  +1.00000000000e+000
  +1.00000000000e+000
  +1.00000000000e+000
  +1.00000000000e+000
  +1.00000000000e+000
  +1.00000000000e+000
  +1.00000000000e+000
  +1.00000000000e+000
  +1.00000000000e+000
  +8.98989898992e-001
  +0.00000000000e+000
  +0.00000000000e+000
  +0.00000000000e+000
  +0.00000000000e+000
  +0.00000000000e+000
  +0.00000000000e+000
  +0.00000000000e+000
  +0.00000000000e+000
  +0.00000000000e+000
  +2.02020202016e-001
  +1.00000000000e+000
  +1.00000000000e+000
  +1.00000000000e+000
  +1.00000000000e+000
  +1.00000000000e+000
  +1.00000000000e+000
  +1.00000000000e+000
  +1.00000000000e+000
  +1.00000000000e+000
  +6.96969696976e-001
  +0.00000000000e+000
  +0.00000000000e+000
  +0.00000000000e+000
  +0.00000000000e+000
  +0.00000000000e+000
  +0.00000000000e+000
  +0.00000000000e+000
  +0.00000000000e+000
  +0.00000000000e+000
  +4.04040404032e-001
  +1.00000000000e+000
  +1.00000000000e+000
  +1.00000000000e+000
  +1.00000000000e+000
  +1.00000000000e+000
  +1.00000000000e+000
  +1.00000000000e+000
  +1.00000000000e+000
  +1.00000000000e+000
  +4.94949494960e-001
  +0.00000000000e+000
  +0.00000000000e+000
  +0.00000000000e+000
  +0.00000000000e+000
  +0.00000000000e+000
  +0.00000000000e+000
  +0.00000000000e+000
  +0.00000000000e+000
  +0.00000000000e+000
  +6.06060606047e-001
  +1.00000000000e+000
  +1.00000000000e+000
  +1.00000000000e+000
  +1.00000000000e+000
  +1.00000000000e+000
  +1.00000000000e+000
  +1.00000000000e+000
  +1.00000000000e+000
  +1.00000000000e+000
  +2.92929292945e-001
  +0.00000000000e+000
  +0.00000000000e+000
  +0.00000000000e+000
  +0.00000000000e+000
  +0.00000000000e+000
  +0.00000000000e+000
  +0.00000000000e+000
  +0.00000000000e+000
  +0.00000000000e+000
  +8.08080808063e-001
  +1.00000000000e+000
  +1.00000000000e+000
  +1.00000000000e+000
  +1.00000000000e+000
  +1.00000000000e+000
  +1.00000000000e+000
  +1.00000000000e+000
  +1.00000000000e+000
  +1.00000000000e+000
  +9.09090909289e-002
  +0.00000000000e+000
  +0.00000000000e+000
  +0.00000000000e+000
  +0.00000000000e+000
  +0.00000000000e+000
  +0.00000000000e+000
  +0.00000000000e+000
  +0.00000000000e+000
  -1.05879118407e-013
</dep>
<dep PrC.Vt time>
  +4.99900014998e-001
  +4.99590682538e-001
  +4.98991244462e-001
  +4.98237855748e-001
  +4.99259102201e-001
  +4.99773741059e-001
  +5.00280195481e-001
  +5.00785842665e-001
  +5.01285283003e-001
  +5.01792915475e-001
  +5.02264987994e-001
  +5.01547303202e-001
  +5.01978958509e-001
  +5.01788008202e-001
  +5.00302436685e-001
  +5.00161156434e-001
  +5.01334683532e-001
  +4.99146535567e-001
  +5.01116599893e-001
  +4.98143570785e-001
  +4.97929595692e-001
  +4.99106880159e-001
  +4.98352050641e-001
  +4.98086457218e-001
  +4.99370318873e-001
  +4.99874190663e-001
  +4.98571058871e-001
  +4.98262584534e-001
  +4.98449802519e-001
  +5.01891008345e-001
  +5.02300128356e-001
  +5.01793282034e-001
  +5.01573805722e-001
  +5.01066447322e-001
  +5.00565355977e-001
  +5.00057350707e-001
  +5.01823637967e-001
  +4.99050089553e-001
  +4.98548072189e-001
  +4.98044452599e-001
  +4.97978013876e-001
  +4.97860188816e-001
  +4.97898852307e-001
  +4.97851946524e-001
  +4.99470631853e-001
  +4.99977248540e-001
  +5.00481135443e-001
  +5.00981824050e-001
  +5.01487485557e-001
  +5.01991834968e-001
  +5.02351100169e-001
  +5.01942837329e-001
  +5.01789147678e-001
  +5.00969678476e-001
  +5.00464306038e-001
  +4.99959324905e-001
  +4.99447729066e-001
  +5.01500426321e-001
  +4.98445116391e-001
  +4.97940201959e-001
  +4.98119440258e-001
  +4.98323638850e-001
  +4.98560466779e-001
  +4.99294134602e-001
  +4.99567814607e-001
  +5.00077820430e-001
  +5.00580525276e-001
  +4.98161080259e-001
  +5.01589415015e-001
  +5.02080574300e-001
  +5.02001464864e-001
  +5.01243401155e-001
  +5.01648820395e-001
  +5.00866684495e-001
  +5.00891391863e-001
  +4.99859218602e-001
  +5.00907737047e-001
  +4.98847685996e-001
  +4.98342438157e-001
  +4.97841063954e-001
  +4.98506448152e-001
  +4.98349123407e-001
  +4.98046036911e-001
  +4.98026903671e-001
  +4.99673372216e-001
  +5.00176908612e-001
  +5.00683791021e-001
  +4.98980222699e-001
  +5.01690509835e-001
  +5.02193111793e-001
  +5.01910355894e-001
  +5.01412589231e-001
  +5.01272196697e-001
  +5.00767664369e-001
  +5.00262451759e-001
  +4.99756386669e-001
  +5.00984099777e-001
  +5.01710226416e-001
  +4.98243398244e-001
  +4.97741983926e-001
</dep>
<dep V1.It time>
  +4.99900014998e-004
  -5.00409317462e-004
  -5.01008755538e-004
  -5.01762144252e-004
  -5.00740897799e-004
  -5.00226258941e-004
  -4.99719804519e-004
  -4.99214157335e-004
  -4.98714716997e-004
  -4.98207084525e-004
  -3.96724910998e-004
  +5.01547303202e-004
  +5.01978958509e-004
  +5.01788008202e-004
  +5.00302436685e-004
  +5.00161156434e-004
  +5.01334683532e-004
  +4.99146535567e-004
  +5.01116599893e-004
  +4.98143570785e-004
  +2.95909393676e-004
  -5.00893119841e-004
  -5.01647949359e-004
  -5.01913542782e-004
  -5.00629681127e-004
  -5.00125809337e-004
  -5.01428941129e-004
  -5.01737415466e-004
  -5.01550197481e-004
  -4.98108991655e-004
  -1.94669568620e-004
  +5.01793282034e-004
  +5.01573805722e-004
  +5.01066447322e-004
  +5.00565355977e-004
  +5.00057350707e-004
  +5.01823637967e-004
  +4.99050089553e-004
  +4.98548072189e-004
  +4.98044452599e-004
  +9.39376098443e-005
  -5.02139811184e-004
  -5.02101147693e-004
  -5.02148053476e-004
  -5.00529368147e-004
  -5.00022751460e-004
  -4.99518864557e-004
  -4.99018175950e-004
  -4.98512514443e-004
  -4.98008165032e-004
  +7.40160520804e-006
  +5.01942837329e-004
  +5.01789147678e-004
  +5.00969678476e-004
  +5.00464306038e-004
  +4.99959324905e-004
  +4.99447729066e-004
  +5.01500426321e-004
  +4.98445116391e-004
  +4.97940201959e-004
  -1.07941165790e-004
  -5.01676361150e-004
  -5.01439533221e-004
  -5.00705865398e-004
  -5.00432185393e-004
  -4.99922179570e-004
  -4.99419474724e-004
  -5.01838919741e-004
  -4.98410584985e-004
  -4.97919425700e-004
  +2.09072171919e-004
  +5.01243401155e-004
  +5.01648820395e-004
  +5.00866684495e-004
  +5.00891391863e-004
  +4.99859218602e-004
  +5.00907737047e-004
  +4.98847685996e-004
  +4.98342438157e-004
  +4.97841063954e-004
  -3.09574359911e-004
  -5.01650876593e-004
  -5.01953963089e-004
  -5.01973096329e-004
  -5.00326627784e-004
  -4.99823091388e-004
  -4.99316208979e-004
  -5.01019777301e-004
  -4.98309490165e-004
  -4.97806888207e-004
  +4.11001264965e-004
  +5.01412589231e-004
  +5.01272196697e-004
  +5.00767664369e-004
  +5.00262451759e-004
  +4.99756386669e-004
  +5.00984099777e-004
  +5.01710226416e-004
  +4.98243398244e-004
  +4.97741983927e-004
</dep>
<dep _net1.Vt time>
  +0.00000000000e+000
  +1.00000000000e+000
  +1.00000000000e+000
  +1.00000000000e+000
  +1.00000000000e+000
  +1.00000000000e+000
  +1.00000000000e+000
  +1.00000000000e+000
  +1.00000000000e+000
  +1.00000000000e+000
  +8.98989898992e-001
  +0.00000000000e+000
  +0.00000000000e+000
  +0.00000000000e+000
  +0.00000000000e+000
  +0.00000000000e+000
  +0.00000000000e+000
  +0.00000000000e+000
  +0.00000000000e+000
  +0.00000000000e+000
  +2.02020202016e-001
  +1.00000000000e+000
  +1.00000000000e+000
  +1.00000000000e+000
  +1.00000000000e+000
  +1.00000000000e+000
  +1.00000000000e+000
  +1.00000000000e+000
  +1.00000000000e+000
  +1.00000000000e+000
  +6.96969696976e-001
  +0.00000000000e+000
  +0.00000000000e+000
  +0.00000000000e+000
  +0.00000000000e+000
  +0.00000000000e+000
  +0.00000000000e+000
  +0.00000000000e+000
  +0.00000000000e+000
  +0.00000000000e+000
  +4.04040404032e-001
  +1.00000000000e+000
  +1.00000000000e+000
  +1.00000000000e+000
  +1.00000000000e+000
  +1.00000000000e+000
  +1.00000000000e+000
  +1.00000000000e+000
  +1.00000000000e+000
  +1.00000000000e+000
  +4.94949494960e-001
  +0.00000000000e+000
  +0.00000000000e+000
  +0.00000000000e+000
  +0.00000000000e+000
  +0.00000000000e+000
  +0.00000000000e+000
  +0.00000000000e+000
  +0.00000000000e+000
  +0.00000000000e+000
  +6.06060606047e-001
  +1.00000000000e+000
  +1.00000000000e+000
  +1.00000000000e+000
  +1.00000000000e+000
  +1.00000000000e+000
  +1.00000000000e+000
  +1.00000000000e+000
  +1.00000000000e+000
  +1.00000000000e+000
  +2.92929292945e-001
  +0.00000000000e+000
  +0.00000000000e+000
  +0.00000000000e+000
  +0.00000000000e+000
  +0.00000000000e+000
  +0.00000000000e+000
  +0.00000000000e+000
  +0.00000000000e+000
  +0.00000000000e+000
  +8.08080808063e-001
  +1.00000000000e+000
  +1.00000000000e+000
  +1.00000000000e+000
  +1.00000000000e+000
  +1.00000000000e+000
  +1.00000000000e+000
  +1.00000000000e+000
  +1.00000000000e+000
  +1.00000000000e+000
  +9.09090909289e-002
  +0.00000000000e+000
  +0.00000000000e+000
  +0.00000000000e+000
  +0.00000000000e+000
  +0.00000000000e+000
  +0.00000000000e+000
  +0.00000000000e+000
  +0.00000000000e+000
  -1.05879118407e-013
</dep>
<dep _net0.Vt time>
  +4.99900014998e-001
  +4.99590682538e-001
  +4.98991244462e-001
  +4.98237855748e-001
  +4.99259102201e-001
  +4.99773741059e-001
  +5.00280195481e-001
  +5.00785842665e-001
  +5.01285283003e-001
  +5.01792915475e-001
  +5.02264987994e-001
  +5.01547303202e-001
  +5.01978958509e-001
  +5.01788008202e-001
  +5.00302436685e-001
  +5.00161156434e-001
  +5.01334683532e-001
  +4.99146535567e-001
  +5.01116599893e-001
  +4.98143570785e-001
  +4.97929595692e-001
  +4.99106880159e-001
  +4.98352050641e-001
  +4.98086457218e-001
  +4.99370318873e-001
  +4.99874190663e-001
  +4.98571058871e-001
  +4.98262584534e-001
  +4.98449802519e-001
  +5.01891008345e-001
  +5.02300128356e-001
  +5.01793282034e-001
  +5.01573805722e-001
  +5.01066447322e-001
  +5.00565355977e-001
  +5.00057350707e-001
  +5.01823637967e-001
  +4.99050089553e-001
  +4.98548072189e-001
  +4.98044452599e-001
  +4.97978013876e-001
  +4.97860188816e-001
  +4.97898852307e-001
  +4.97851946524e-001
  +4.99470631853e-001
  +4.99977248540e-001
  +5.00481135443e-001
  +5.00981824050e-001
  +5.01487485557e-001
  +5.01991834968e-001
  +5.02351100169e-001
  +5.01942837329e-001
  +5.01789147678e-001
  +5.00969678476e-001
  +5.00464306038e-001
  +4.99959324905e-001
  +4.99447729066e-001
  +5.01500426321e-001
  +4.98445116391e-001
  +4.97940201959e-001
  +4.98119440258e-001
  +4.98323638850e-001
  +4.98560466779e-001
  +4.99294134602e-001
  +4.99567814607e-001
  +5.00077820430e-001
  +5.00580525276e-001
  +4.98161080259e-001
  +5.01589415015e-001
  +5.02080574300e-001
  +5.02001464864e-001
  +5.01243401155e-001
  +5.01648820395e-001
  +5.00866684495e-001
  +5.00891391863e-001
  +4.99859218602e-001
  +5.00907737047e-001
  +4.98847685996e-001
  +4.98342438157e-001
  +4.97841063954e-001
  +4.98506448152e-001
  +4.98349123407e-001
  +4.98046036911e-001
  +4.98026903671e-001
  +4.99673372216e-001
  +5.00176908612e-001
  +5.00683791021e-001
  +4.98980222699e-001
  +5.01690509835e-001
  +5.02193111793e-001
  +5.01910355894e-001
  +5.01412589231e-001
  +5.01272196697e-001
  +5.00767664369e-001
  +5.00262451759e-001
  +4.99756386669e-001
  +5.00984099777e-001
  +5.01710226416e-001
  +4.98243398244e-001
  +4.97741983926e-001
</dep>
